#  HZ   S   MA   R     50.0 
! Rohde & Schwarz ZVL 
! 
! 
! 
 1.000000000000000E9     2.298168206011801E-1   8.336395568443170E1  
 1.002000000000000E9     2.435800563217682E-1   7.684076213465194E1  
 1.004000000000000E9     2.486278532785569E-1   6.874263384288248E1  
 1.006000000000000E9     2.498650594748604E-1   6.197918135924035E1  
 1.008000000000000E9     2.557209633896528E-1   5.637347508602312E1  
 1.010000000000000E9     2.605347254900839E-1   4.984716319983797E1  
 1.012000000000000E9     2.656059529394287E-1   4.416663601972386E1  
 1.014000000000000E9     2.632560562518341E-1   3.729027322054020E1  
 1.016000000000000E9     2.632744553236238E-1   3.113037528895564E1  
 1.018000000000000E9     2.614110459213601E-1   2.530293188997099E1  
 1.020000000000000E9     2.598959146635855E-1   2.045167436757053E1  
 1.022000000000000E9     2.563509645632465E-1   1.417235133683238E1  
 1.024000000000000E9     2.525152915746836E-1   9.250685712085595  
 1.026000000000000E9     2.508237325024416E-1   4.976395125121957  
 1.028000000000000E9     2.475730031224355E-1   1.487568775829033E-1  
 1.030000000000000E9     2.473947873091963E-1  -4.017798672421182  
 1.032000000000000E9     2.477918268811322E-1  -8.163845989922596  
 1.034000000000000E9     2.478669450571530E-1  -1.334106232339970E1  
 1.036000000000000E9     2.495997838186685E-1  -1.851583666684097E1  
 1.038000000000000E9     2.495662754744447E-1  -2.510258194218470E1  
 1.040000000000000E9     2.426458819364702E-1  -3.003285983091183E1  
 1.042000000000000E9     2.440301512635026E-1  -3.577776601141112E1  
 1.044000000000000E9     2.385371746572425E-1  -4.206456401539138E1  
 1.046000000000000E9     2.343414059015684E-1  -4.739726516421981E1  
 1.048000000000000E9     2.361954646448137E-1  -5.320782654125244E1  
 1.050000000000000E9     2.330956638285056E-1  -5.848603686106601E1  
 1.052000000000000E9     2.268379725250473E-1  -6.496861091115846E1  
 1.054000000000000E9     2.233640104346445E-1  -7.289840727092866E1  
 1.056000000000000E9     2.126550849984936E-1  -8.016899641765160E1  
 1.058000000000000E9     2.046275050443715E-1  -8.741782564814362E1  
 1.060000000000000E9     1.930001418403192E-1  -9.489332641052592E1  
 1.062000000000000E9     1.842097977477922E-1  -1.005375133171063E2  
 1.064000000000000E9     1.742091071177224E-1  -1.056982621468223E2  
 1.066000000000000E9     1.665486761364796E-1  -1.143436080338776E2  
 1.068000000000000E9     1.604072029928122E-1  -1.219759662157694E2  
 1.070000000000000E9     1.563291510872149E-1  -1.290010550471682E2  
 1.072000000000000E9     1.478615860775286E-1  -1.372502438096504E2  
 1.074000000000000E9     1.427820888360373E-1  -1.455939871757908E2  
 1.076000000000000E9     1.360101710818566E-1  -1.546116426435047E2  
 1.078000000000000E9     1.308488636942360E-1  -1.624075477815700E2  
 1.080000000000000E9     1.244075387126288E-1  -1.721225987675151E2  
 1.082000000000000E9     1.187187726502035E-1   1.791921226908432E2  
 1.084000000000000E9     1.176759475161051E-1   1.676459726911839E2  
 1.086000000000000E9     1.129224897688787E-1   1.573591057423414E2  
 1.088000000000000E9     1.151895848404889E-1   1.463743744940591E2  
 1.090000000000000E9     1.140446331824418E-1   1.353041850228040E2  
 1.092000000000000E9     1.138641389976249E-1   1.241936741772809E2  
 1.094000000000000E9     1.126669136693117E-1   1.149564962374879E2  
 1.096000000000000E9     1.101676826588464E-1   1.038344707057430E2  
 1.098000000000000E9     1.130496516963162E-1   9.389272029720864E1  
 1.100000000000000E9     1.182888671917839E-1   8.637921276296905E1  
 1.102000000000000E9     1.254411646707314E-1   7.493173633156168E1  
 1.104000000000000E9     1.274922738782716E-1   6.736465097392231E1  
 1.106000000000000E9     1.315660409680567E-1   5.693793299142221E1  
 1.108000000000000E9     1.372724603285620E-1   4.895221167213236E1  
 1.110000000000000E9     1.370286978014884E-1   3.721580429668701E1  
 1.112000000000000E9     1.394260982103539E-1   3.048460005491453E1  
 1.114000000000000E9     1.412550491263591E-1   2.159109058923172E1  
 1.116000000000000E9     1.438000675691865E-1   1.587698766255310E1  
 1.118000000000000E9     1.407267013730097E-1   5.163139173665045  
 1.120000000000000E9     1.433799082411822E-1  -1.222949508295495  
 1.122000000000000E9     1.430026945520554E-1  -9.614841073661831  
 1.124000000000000E9     1.434692179486115E-1  -1.468231488930690E1  
 1.126000000000000E9     1.386322524074944E-1  -2.379806545603022E1  
 1.128000000000000E9     1.379779830844491E-1  -3.055818457116602E1  
 1.130000000000000E9     1.369931080894019E-1  -3.777090467334551E1  
 1.132000000000000E9     1.336111161523207E-1  -4.317978740048594E1  
 1.134000000000000E9     1.352381667381301E-1  -5.093194404661502E1  
 1.136000000000000E9     1.351650657062386E-1  -5.874628341895409E1  
 1.138000000000000E9     1.339166876376279E-1  -6.502735552299775E1  
 1.140000000000000E9     1.382712479794929E-1  -7.312780024584198E1  
 1.142000000000000E9     1.346100108799204E-1  -8.264881424054018E1  
 1.144000000000000E9     1.330243639328513E-1  -9.182708851649377E1  
 1.146000000000000E9     1.288356074294536E-1  -1.001295751163591E2  
 1.148000000000000E9     1.271651376364102E-1  -1.097635656160237E2  
 1.150000000000000E9     1.276640882241356E-1  -1.195821146804788E2  
 1.152000000000000E9     1.241530328210135E-1  -1.274872886022651E2  
 1.154000000000000E9     1.202201689494290E-1  -1.377523168551730E2  
 1.156000000000000E9     1.180484855957124E-1  -1.459720752560242E2  
 1.158000000000000E9     1.145665094239601E-1  -1.540156938140413E2  
 1.160000000000000E9     1.135590711542813E-1  -1.627798318441293E2  
 1.162000000000000E9     1.154195400340908E-1  -1.697016976130498E2  
 1.164000000000000E9     1.180780680695226E-1  -1.793151771153750E2  
 1.166000000000000E9     1.207349599180909E-1   1.726169547559956E2  
 1.168000000000000E9     1.221147383243917E-1   1.637519947407651E2  
 1.170000000000000E9     1.266213817059571E-1   1.542678835376374E2  
 1.172000000000000E9     1.273593400288733E-1   1.462335582773318E2  
 1.174000000000000E9     1.278313494361934E-1   1.382766148098078E2  
 1.176000000000000E9     1.344299718993242E-1   1.317956297490586E2  
 1.178000000000000E9     1.357641783311336E-1   1.259016172380477E2  
 1.180000000000000E9     1.388369514511642E-1   1.168355536345585E2  
 1.182000000000000E9     1.447683854825350E-1   1.113296945354613E2  
 1.184000000000000E9     1.462989075192978E-1   1.045143708779197E2  
 1.186000000000000E9     1.481455933185277E-1   9.986307404767472E1  
 1.188000000000000E9     1.508137389931434E-1   9.357631134403663E1  
 1.190000000000000E9     1.553078520918229E-1   9.002457807408595E1  
 1.192000000000000E9     1.581834914914451E-1   8.335138851748087E1  
 1.194000000000000E9     1.603588305164626E-1   7.907512860489145E1  
 1.196000000000000E9     1.632316484485314E-1   7.324344602327204E1  
 1.198000000000000E9     1.661334977462909E-1   6.896749053431365E1  
 1.200000000000000E9     1.704413129594206E-1   6.499920473417411E1  
 1.202000000000000E9     1.707762352007491E-1   6.117882781529344E1  
 1.204000000000000E9     1.754556816492624E-1   5.713601171687334E1  
 1.206000000000000E9     1.799746949382508E-1   5.219917727495883E1  
 1.208000000000000E9     1.793765499690938E-1   4.714186886151299E1  
 1.210000000000000E9     1.840915014649822E-1   4.310570813685957E1  
 1.212000000000000E9     1.851633445734066E-1   3.833661787470835E1  
 1.214000000000000E9     1.849073371133655E-1   3.421143133458415E1  
 1.216000000000000E9     1.845018597423827E-1   3.149808192883960E1  
 1.218000000000000E9     1.843933413612619E-1   2.845444487291506E1  
 1.220000000000000E9     1.871253394206830E-1   2.497848349558684E1  
 1.222000000000000E9     1.886767852403505E-1   2.168960135560349E1  
 1.224000000000000E9     1.903155705958258E-1   1.918850319755531E1  
 1.226000000000000E9     1.944910794906233E-1   1.645783699627778E1  
 1.228000000000000E9     2.025280982369362E-1   1.254263022663274E1  
 1.230000000000000E9     2.100561415049326E-1   9.029082942627223  
 1.232000000000000E9     2.129027408243623E-1   4.578789400445517  
 1.234000000000000E9     2.199569188329476E-1  -5.686348451658769E-1  
 1.236000000000000E9     2.240572456659159E-1  -5.232278256892770  
 1.238000000000000E9     2.249365479417339E-1  -1.108910299829352E1  
 1.240000000000000E9     2.252522973275537E-1  -1.647833145184213E1  
 1.242000000000000E9     2.266044492448075E-1  -2.206763853762005E1  
 1.244000000000000E9     2.247609185799995E-1  -2.713773481339326E1  
 1.246000000000000E9     2.209351522210686E-1  -3.344260639798001E1  
 1.248000000000000E9     2.157229160287847E-1  -3.845370259767066E1  
 1.250000000000000E9     2.112476462927464E-1  -4.432355384336245E1  
 1.252000000000000E9     2.052791089994165E-1  -4.971038739369513E1  
 1.254000000000000E9     1.958667945241935E-1  -5.343429691519767E1  
 1.256000000000000E9     1.898638525776273E-1  -5.926461889008552E1  
 1.258000000000000E9     1.814314376388913E-1  -6.389970251574339E1  
 1.260000000000000E9     1.765328894486017E-1  -6.865464438303467E1  
 1.262000000000000E9     1.717822833917735E-1  -7.350181548536040E1  
 1.264000000000000E9     1.637950829591572E-1  -7.915651593436219E1  
 1.266000000000000E9     1.548493614020281E-1  -8.436338058636399E1  
 1.268000000000000E9     1.474212892175561E-1  -8.816211974750161E1  
 1.270000000000000E9     1.407805859017768E-1  -9.367767252063074E1  
 1.272000000000000E9     1.355489741646898E-1  -9.833276124673594E1  
 1.274000000000000E9     1.298525285878728E-1  -1.022653802375717E2  
 1.276000000000000E9     1.254204580169787E-1  -1.070634559535049E2  
 1.278000000000000E9     1.217627901478294E-1  -1.125347979738980E2  
 1.280000000000000E9     1.181226832887517E-1  -1.171263175007296E2  
 1.282000000000000E9     1.158040730237849E-1  -1.223644542148430E2  
 1.284000000000000E9     1.111020123959624E-1  -1.287987964976419E2  
 1.286000000000000E9     1.049530994974654E-1  -1.365361722679953E2  
 1.288000000000000E9     1.043540783082770E-1  -1.408701284305862E2  
 1.290000000000000E9     9.796002634349053E-2  -1.486591579094635E2  
 1.292000000000000E9     9.752067376159074E-2  -1.544036282725208E2  
 1.294000000000000E9     9.581157464690268E-2  -1.627883123294746E2  
 1.296000000000000E9     9.656838797330714E-2  -1.696953888771042E2  
 1.298000000000000E9     9.799951422935699E-2  -1.765461381098208E2  
 1.300000000000000E9     9.804180242179925E-2   1.730279888846306E2  
 1.302000000000000E9     9.799169863858052E-2   1.646538351526685E2  
 1.304000000000000E9     9.819755399155143E-2   1.553643416320751E2  
 1.306000000000000E9     9.918061563672349E-2   1.441633524750442E2  
 1.308000000000000E9     1.003140100907116E-1   1.361404865097448E2  
 1.310000000000000E9     1.031837800801353E-1   1.269996869004571E2  
 1.312000000000000E9     1.016866759764229E-1   1.168307898723074E2  
 1.314000000000000E9     1.045663637464305E-1   1.077813769116310E2  
 1.316000000000000E9     1.031406873126570E-1   9.727754526135080E1  
 1.318000000000000E9     1.021272237278634E-1   8.748463186278895E1  
 1.320000000000000E9     1.016592713545158E-1   7.870376637484378E1  
 1.322000000000000E9     9.889404273537016E-2   7.087097583124456E1  
 1.324000000000000E9     9.645107825821087E-2   6.455786136463669E1  
 1.326000000000000E9     9.162402915539085E-2   5.741880928210576E1  
 1.328000000000000E9     8.978807374185181E-2   5.204849890300848E1  
 1.330000000000000E9     8.962067249440238E-2   4.533128606805681E1  
 1.332000000000000E9     8.828975935562160E-2   4.138263525382101E1  
 1.334000000000000E9     8.900826630461742E-2   3.289337743202447E1  
 1.336000000000000E9     9.061774673129766E-2   2.720192539809280E1  
 1.338000000000000E9     8.895331606277376E-2   2.079428857177474E1  
 1.340000000000000E9     8.815047264097341E-2   1.322063476392975E1  
 1.342000000000000E9     8.706963522590222E-2   7.740863807928069  
 1.344000000000000E9     8.773216174355376E-2  -3.674665255376566E-2  
 1.346000000000000E9     8.613618176556372E-2  -1.004078745377121E1  
 1.348000000000000E9     8.129730947769225E-2  -1.761772651754089E1  
 1.350000000000000E9     7.675311044338706E-2  -2.514197570440090E1  
 1.352000000000000E9     6.973475225190214E-2  -3.558969743540629E1  
 1.354000000000000E9     6.593734424832108E-2  -4.345046416701472E1  
 1.356000000000000E9     6.188012867952983E-2  -5.392648450584841E1  
 1.358000000000000E9     5.491638304478500E-2  -6.257022512014411E1  
 1.360000000000000E9     4.750036133196690E-2  -7.345365666972424E1  
 1.362000000000000E9     4.035132064319229E-2  -8.588304405699505E1  
 1.364000000000000E9     3.360201386947176E-2  -9.910737269636300E1  
 1.366000000000000E9     2.674684637937079E-2  -1.179774291694926E2  
 1.368000000000000E9     1.958393635331235E-2  -1.340877080536223E2  
 1.370000000000000E9     1.418260322611719E-2  -1.597227889709234E2  
 1.372000000000000E9     1.066285320376159E-2  -1.796493186175105E2  
 1.374000000000000E9     7.469830141155970E-3   1.213669051246099E2  
 1.376000000000000E9     3.343689163334291E-3   4.906672283045107E1  
 1.378000000000000E9     7.436038098448130E-3  -1.203572675815829E1  
 1.380000000000000E9     9.414987670177960E-3  -5.526856993563806E1  
 1.382000000000000E9     1.609639864148883E-2  -9.625292786984478E1  
 1.384000000000000E9     2.909333917477216E-2  -1.220452247659913E2  
 1.386000000000000E9     3.823277608018352E-2  -1.412036040043562E2  
 1.388000000000000E9     4.942540602433088E-2  -1.620818046675797E2  
 1.390000000000000E9     6.178014382081023E-2  -1.779478589404270E2  
 1.392000000000000E9     7.351164931335959E-2   1.679623687908045E2  
 1.394000000000000E9     8.498524234636413E-2   1.567996012278161E2  
 1.396000000000000E9     9.686824074463248E-2   1.441846064757263E2  
 1.398000000000000E9     1.080918733177766E-1   1.337745106867131E2  
 1.400000000000000E9     1.149543074316330E-1   1.248489194897336E2  
 1.402000000000000E9     1.271660153824219E-1   1.182461618724787E2  
 1.404000000000000E9     1.325652303687153E-1   1.103828262805495E2  
 1.406000000000000E9     1.421751205865467E-1   1.042721556520146E2  
 1.408000000000000E9     1.516027982323527E-1   9.786324185900686E1  
 1.410000000000000E9     1.621120910011275E-1   9.252754496029490E1  
 1.412000000000000E9     1.744436596595473E-1   8.645718165063796E1  
 1.414000000000000E9     1.837984530679637E-1   8.007864531336436E1  
 1.416000000000000E9     1.992887431520517E-1   7.530894742021938E1  
 1.418000000000000E9     2.084624069417836E-1   6.909194538039530E1  
 1.420000000000000E9     2.226712797637969E-1   6.276408113977391E1  
 1.422000000000000E9     2.290158725609936E-1   5.711392502364856E1  
 1.424000000000000E9     2.400283918600735E-1   5.115162103445365E1  
 1.426000000000000E9     2.475715522973495E-1   4.410551869618992E1  
 1.428000000000000E9     2.548948317314729E-1   3.891493178638302E1  
 1.430000000000000E9     2.617490245624023E-1   3.290424296037980E1  
 1.432000000000000E9     2.653073740120666E-1   2.793086558430736E1  
 1.434000000000000E9     2.706950806584751E-1   2.177699016006243E1  
 1.436000000000000E9     2.723866068309515E-1   1.684052338187941E1  
 1.438000000000000E9     2.765040002382056E-1   1.264095372838612E1  
 1.440000000000000E9     2.804581334072401E-1   7.053456502926015  
 1.442000000000000E9     2.807239509108652E-1   2.288497634569740  
 1.444000000000000E9     2.825354604670406E-1  -2.259970945942243  
 1.446000000000000E9     2.889234852944393E-1  -6.529521456351609  
 1.448000000000000E9     2.932289550907737E-1  -1.094945254308273E1  
 1.450000000000000E9     3.016211921162223E-1  -1.531456206444295E1  
 1.452000000000000E9     3.073678812348289E-1  -2.013106153222234E1  
 1.454000000000000E9     3.119939457095066E-1  -2.494567678255407E1  
 1.456000000000000E9     3.178176985787007E-1  -3.055170516287210E1  
 1.458000000000000E9     3.250160443349456E-1  -3.539774749582946E1  
 1.460000000000000E9     3.296246719521248E-1  -4.101553443642204E1  
 1.462000000000000E9     3.295469381434640E-1  -4.719694989657070E1  
 1.464000000000000E9     3.331978685592193E-1  -5.286178409685378E1  
 1.466000000000000E9     3.314058601781650E-1  -5.924628189364929E1  
 1.468000000000000E9     3.281552638653687E-1  -6.471508755766577E1  
 1.470000000000000E9     3.286144822794800E-1  -6.999458295410564E1  
 1.472000000000000E9     3.272574770312952E-1  -7.489599294174978E1  
 1.474000000000000E9     3.245110733142467E-1  -8.120232465392205E1  
 1.476000000000000E9     3.238639484345486E-1  -8.604614814997079E1  
 1.478000000000000E9     3.217339978052007E-1  -9.115968941539077E1  
 1.480000000000000E9     3.189915916717288E-1  -9.667533363003594E1  
 1.482000000000000E9     3.209826616560101E-1  -1.024228753652104E2  
 1.484000000000000E9     3.271327780409442E-1  -1.068809856935306E2  
 1.486000000000000E9     3.268450051065712E-1  -1.131100148516327E2  
 1.488000000000000E9     3.298647757289329E-1  -1.181831127735190E2  
 1.490000000000000E9     3.329173917701623E-1  -1.248562945777064E2  
 1.492000000000000E9     3.356833684297224E-1  -1.310696685192199E2  
 1.494000000000000E9     3.373458411444953E-1  -1.373302851500350E2  
 1.496000000000000E9     3.388459550305988E-1  -1.437859572192886E2  
 1.498000000000000E9     3.420747398393029E-1  -1.499844332088973E2  
 1.500000000000000E9     3.453616839432437E-1  -1.574474153498250E2  
 1.502000000000000E9     3.453751317221683E-1  -1.631747239973691E2  
 1.504000000000000E9     3.483961992893699E-1  -1.696069749325517E2  
 1.506000000000000E9     3.487464027928968E-1  -1.762825864763269E2  
 1.508000000000000E9     3.478959106485291E-1   1.776982286619331E2  
 1.510000000000000E9     3.533483161412974E-1   1.713935009962324E2  
 1.512000000000000E9     3.557684560080395E-1   1.651557773412008E2  
 1.514000000000000E9     3.584085285066281E-1   1.582753367935354E2  
 1.516000000000000E9     3.598553770634814E-1   1.518752172378794E2  
 1.518000000000000E9     3.640047074629592E-1   1.456177685361415E2  
 1.520000000000000E9     3.638337457193739E-1   1.390072709811923E2  
 1.522000000000000E9     3.637067201277444E-1   1.329221649098511E2  
 1.524000000000000E9     3.675334519177874E-1   1.269960775573951E2  
 1.526000000000000E9     3.666877194112119E-1   1.206706941940314E2  
 1.528000000000000E9     3.686333510796672E-1   1.153590671256079E2  
 1.530000000000000E9     3.686268356559398E-1   1.095442893101105E2  
 1.532000000000000E9     3.696151848391268E-1   1.036013165955459E2  
 1.534000000000000E9     3.689926927917622E-1   9.886677715288559E1  
 1.536000000000000E9     3.724583369368265E-1   9.384600793497094E1  
 1.538000000000000E9     3.742921462937306E-1   8.806351013965418E1  
 1.540000000000000E9     3.757384036694581E-1   8.335131885561279E1  
 1.542000000000000E9     3.807166014863337E-1   7.772136551798826E1  
 1.544000000000000E9     3.829468436821071E-1   7.290298536193767E1  
 1.546000000000000E9     3.845947178413149E-1   6.740432962816934E1  
 1.548000000000000E9     3.890981858501129E-1   6.249169732964544E1  
 1.550000000000000E9     3.900471055499404E-1   5.707612436489475E1  
 1.552000000000000E9     3.887688876893339E-1   5.208723453332568E1  
 1.554000000000000E9     3.898759294141591E-1   4.656477914146036E1  
 1.556000000000000E9     3.921821303102348E-1   4.289061378292649E1  
 1.558000000000000E9     3.910055871738593E-1   3.742850861429191E1  
 1.560000000000000E9     3.913946465746593E-1   3.304601943475191E1  
